T2014 1512:593 SEGGER J-Link V6.40 Log File (0001ms, 11589ms total)
T2014 1512:593 DLL Compiled: Oct 26 2018 15:06:02 (0001ms, 11589ms total)
T2014 1512:593 Logging started @ 2018-12-08 01:14 (0001ms, 11589ms total)
T2014 1512:594 JLINK_SetWarnOutHandler(...) (0000ms, 11589ms total)
T2014 1512:594 JLINK_OpenEx(...)
Firmware: J-Link V9 compiled Oct 25 2018 11:46:07
Hardware: V9.50
S/N: 20580863
Feature(s): GDB, RDI, FlashBP, FlashDL, JFlash, RDDI
TELNET listener socket opened on port 19021WEBSRV 
Starting webserver (0052ms, 11641ms total)
T2014 1512:594 WEBSRV Webserver running on local port 19080 (0053ms, 11642ms total)
T2014 1512:594   returns O.K. (0053ms, 11642ms total)
T2014 1512:649 JLINK_GetEmuCaps()  returns 0xB9FF7BBF (0000ms, 11642ms total)
T2014 1512:649 JLINK_TIF_GetAvailable(...) (0000ms, 11642ms total)
T2014 1512:650 JLINK_SetErrorOutHandler(...) (0000ms, 11643ms total)
T2014 1512:650 JLINK_ExecCommand("ProjectFile = "C:\Proj\Keil\STM32F407\teste\JLinkSettings.ini"", ...).   returns 0x00 (0004ms, 11647ms total)
T2014 1512:654 JLINK_ExecCommand("Device = STM32F407ZGTx", ...). Device "STM32F407ZG" selected.  returns 0x00 (0004ms, 11651ms total)
T2014 1512:658 JLINK_ExecCommand("DisableConnectionTimeout", ...).   returns 0x01 (0000ms, 11651ms total)
T2014 1512:658 JLINK_GetHardwareVersion()  returns 0x17318 (0000ms, 11651ms total)
T2014 1512:658 JLINK_GetDLLVersion()  returns 64000 (0000ms, 11651ms total)
T2014 1512:658 JLINK_GetFirmwareString(...) (0000ms, 11651ms total)
T2014 1512:658 JLINK_GetDLLVersion()  returns 64000 (0001ms, 11652ms total)
T2014 1512:659 JLINK_GetCompileDateTime() (0000ms, 11652ms total)
T2014 1512:659 JLINK_GetFirmwareString(...) (0000ms, 11652ms total)
T2014 1512:659 JLINK_GetHardwareVersion()  returns 0x17318 (0000ms, 11652ms total)
T2014 1512:659 JLINK_TIF_Select(JLINKARM_TIF_JTAG)  returns 0x00 (0006ms, 11658ms total)
T2014 1512:666 JLINK_SetSpeed(3000) (0000ms, 11658ms total)
T2014 1512:666 JLINK_GetIdData(...) >0x2F8 JTAG>TotalIRLen = 9, IRPrint = 0x0011 >0x30 JTAG> >0x50 JTAG>JTAG chain detection found 2 devices: #0 Id: 0x4BA00477, IRLen: 04, CoreSight JTAG-DP #1 Id: 0x06413041, IRLen: 05, STM32 Boundary Scan >0x40 JTAG> >0x40 JTAG> >0x40 JTAG> >0x30 JTAG> >0x40 JTAG> >0x40 JTAG> >0x40 JTAG> >0x40 JTAG> >0x40 JTAG> >0x40 JTAG> >0x40 JTAG> >0x40 JTAG> >0x40 JTAG> >0x40 JTAG> >0x40 JTAG> >0x40 JTAG> >0x40 JTAG> >0x40 JTAG> >0x40 JTAG> >0x40 JTAG> >0x40 JTAG> >0x40 JTAG>
 >0x40 JTAG> >0x40 JTAG> >0x2F8 JTAG>TotalIRLen = 9, IRPrint = 0x0011 >0x30 JTAG> >0x50 JTAG>JTAG chain detection found 2 devices: #0 Id: 0x4BA00477, IRLen: 04, CoreSight JTAG-DP #1 Id: 0x06413041, IRLen: 05, STM32 Boundary ScanScanning AP map to find all available APs >0x80 JTAG> >0x50 JTAG> >0x40 JTAG> >0x40 JTAG> >0x50 JTAG> >0x40 JTAG>AP[1]: Stopped AP scan as end of AP map has been reachedAP[0]: AHB-AP (IDR: 0x24770011)Iterating through AP map to find AHB-AP to use >0x80 JTAG> >0x50 JTAG>
 >0x50 JTAG> >0x70 JTAG> >0x40 JTAG> >0x30 JTAG> >0x40 JTAG> >0x40 JTAG>AP[0]: Core foundAP[0]: AHB-AP ROM base: 0xE00FF000 >0x40 JTAG> >0x40 JTAG> >0x30 JTAG> >0x40 JTAG> >0x40 JTAG>CPUID register: 0x410FC241. Implementer code: 0x41 (ARM)Found Cortex-M4 r0p1, Little endian. -- Max. mem block: 0x00010F28 -- CPU_ReadMem(4 bytes @ 0xE000EDF0) -- CPU_WriteMem(4 bytes @ 0xE000EDF0) -- CPU_ReadMem(4 bytes @ 0xE0002000)FPUnit: 6 code (BP) slots and 2 literal slots -- CPU_ReadMem(4 bytes @ 0xE000EDFC)
 -- CPU_WriteMem(4 bytes @ 0xE000EDFC) -- CPU_ReadMem(4 bytes @ 0xE0001000) -- CPU_WriteMem(4 bytes @ 0xE0001000) -- CPU_ReadMem(4 bytes @ 0xE000ED88) -- CPU_WriteMem(4 bytes @ 0xE000ED88) -- CPU_ReadMem(4 bytes @ 0xE000ED88) -- CPU_WriteMem(4 bytes @ 0xE000ED88)CoreSight components:ROMTbl[0] @ E00FF000 -- CPU_ReadMem(16 bytes @ 0xE00FF000) -- CPU_ReadMem(16 bytes @ 0xE000EFF0) -- CPU_ReadMem(16 bytes @ 0xE000EFE0)ROMTbl[0][0]: E000E000, CID: B105E00D, PID: 000BB00C SCS-M7
 -- CPU_ReadMem(16 bytes @ 0xE0001FF0) -- CPU_ReadMem(16 bytes @ 0xE0001FE0)ROMTbl[0][1]: E0001000, CID: B105E00D, PID: 003BB002 DWT -- CPU_ReadMem(16 bytes @ 0xE0002FF0) -- CPU_ReadMem(16 bytes @ 0xE0002FE0)ROMTbl[0][2]: E0002000, CID: B105E00D, PID: 002BB003 FPB -- CPU_ReadMem(16 bytes @ 0xE0000FF0) -- CPU_ReadMem(16 bytes @ 0xE0000FE0)ROMTbl[0][3]: E0000000, CID: B105E00D, PID: 003BB001 ITM -- CPU_ReadMem(16 bytes @ 0xE00FF010) -- CPU_ReadMem(16 bytes @ 0xE0040FF0)
 -- CPU_ReadMem(16 bytes @ 0xE0040FE0)ROMTbl[0][4]: E0040000, CID: B105900D, PID: 000BB9A1 TPIU -- CPU_ReadMem(16 bytes @ 0xE0041FF0) -- CPU_ReadMem(16 bytes @ 0xE0041FE0)ROMTbl[0][5]: E0041000, CID: B105900D, PID: 000BB925 ETM ScanLen=9 NumDevices=2 aId[0]=0x4BA00477 aIrRead[0]=0 aScanLen[0]=0 aScanRead[0]=0 (0083ms, 11741ms total)
T2014 1512:749 JLINK_JTAG_GetDeviceID(DeviceIndex = 0)  returns 0x4BA00477 (0000ms, 11741ms total)
T2014 1512:749 JLINK_JTAG_GetDeviceInfo(DeviceIndex = 0)  returns 0x00 (0000ms, 11741ms total)
T2014 1512:749 JLINK_JTAG_GetDeviceID(DeviceIndex = 1)  returns 0x6413041 (0000ms, 11741ms total)
T2014 1512:749 JLINK_JTAG_GetDeviceInfo(DeviceIndex = 1)  returns 0x00 (0000ms, 11741ms total)
T2014 1512:749 JLINK_GetDLLVersion()  returns 64000 (0000ms, 11741ms total)
T2014 1512:749 JLINK_CORE_GetFound()  returns 0xE0000FF (0000ms, 11741ms total)
T2014 1512:749 JLINK_GetDebugInfo(0x100 = JLINKARM_ROM_TABLE_ADDR_INDEX) -- Value=0xE00FF000  returns 0x00 (0000ms, 11741ms total)
T2014 1512:749 JLINK_GetDebugInfo(0x100 = JLINKARM_ROM_TABLE_ADDR_INDEX) -- Value=0xE00FF000  returns 0x00 (0000ms, 11741ms total)
T2014 1512:749 JLINK_GetDebugInfo(0x101 = JLINKARM_DEBUG_INFO_ETM_ADDR_INDEX) -- Value=0xE0041000  returns 0x00 (0001ms, 11742ms total)
T2014 1512:750 JLINK_ReadMemEx(0xE0041FD0, 0x0020 Bytes, ..., Flags = 0x02000004) -- CPU_ReadMem(32 bytes @ 0xE0041FD0) - Data: 04 00 00 00 00 00 00 00 00 00 00 00 00 00 00 00 ...  returns 0x20 (0001ms, 11743ms total)
T2014 1512:751 JLINK_GetDebugInfo(0x102 = JLINKARM_DEBUG_INFO_MTB_ADDR_INDEX) -- Value=0x00000000  returns 0x00 (0000ms, 11743ms total)
T2014 1512:751 JLINK_GetDebugInfo(0x103 = JLINKARM_DEBUG_INFO_TPIU_ADDR_INDEX) -- Value=0xE0040000  returns 0x00 (0000ms, 11743ms total)
T2014 1512:751 JLINK_GetDebugInfo(0x104 = JLINKARM_DEBUG_INFO_ITM_ADDR_INDEX) -- Value=0xE0000000  returns 0x00 (0000ms, 11743ms total)
T2014 1512:751 JLINK_GetDebugInfo(0x105 = JLINKARM_DEBUG_INFO_DWT_ADDR_INDEX) -- Value=0xE0001000  returns 0x00 (0000ms, 11743ms total)
T2014 1512:751 JLINK_GetDebugInfo(0x106 = JLINKARM_DEBUG_INFO_FPB_ADDR_INDEX) -- Value=0xE0002000  returns 0x00 (0000ms, 11743ms total)
T2014 1512:751 JLINK_GetDebugInfo(0x107 = JLINKARM_DEBUG_INFO_NVIC_ADDR_INDEX) -- Value=0xE000E000  returns 0x00 (0000ms, 11743ms total)
T2014 1512:751 JLINK_GetDebugInfo(0x10C = JLINKARM_DEBUG_INFO_DBG_ADDR_INDEX) -- Value=0xE000EDF0  returns 0x00 (0001ms, 11744ms total)
T2014 1512:752 JLINK_GetDebugInfo(0x01 = Unknown) -- Value=0x00000001  returns 0x00 (0000ms, 11744ms total)
T2014 1512:752 JLINK_ReadMemU32(0xE000ED00, 0x0001 Items, ...) -- CPU_ReadMem(4 bytes @ 0xE000ED00) - Data: 41 C2 0F 41  returns 1 (0001ms, 11745ms total)
T2014 1512:753 JLINK_GetDebugInfo(0x10F = JLINKARM_DEBUG_INFO_HAS_CORTEX_M_SECURITY_EXT_INDEX) -- Value=0x00000000  returns 0x00 (0000ms, 11745ms total)
T2014 1512:753 JLINK_SetResetType(JLINKARM_CM3_RESET_TYPE_NORMAL)  returns JLINKARM_CM3_RESET_TYPE_NORMAL (0000ms, 11745ms total)
T2014 1512:753 JLINK_Reset() -- CPU is running -- CPU_WriteMem(4 bytes @ 0xE000EDF0) -- CPU is running -- CPU_WriteMem(4 bytes @ 0xE000EDFC)Reset: Halt core after reset via DEMCR.VC_CORERESET.Reset: Reset device via AIRCR.SYSRESETREQ. -- CPU is running -- CPU_WriteMem(4 bytes @ 0xE000ED0C) -- CPU_ReadMem(4 bytes @ 0xE000EDF0) -- CPU_ReadMem(4 bytes @ 0xE000EDF0) -- CPU is running -- CPU_WriteMem(4 bytes @ 0xE000EDF0) -- CPU is running -- CPU_WriteMem(4 bytes @ 0xE000EDFC)
 -- CPU_ReadMem(4 bytes @ 0xE000EDF0) -- CPU_WriteMem(4 bytes @ 0xE000EDFC) -- CPU_WriteMem(4 bytes @ 0xE0001028) -- CPU_WriteMem(4 bytes @ 0xE0001038) -- CPU_WriteMem(4 bytes @ 0xE0001048) -- CPU_WriteMem(4 bytes @ 0xE0001058) -- CPU_WriteMem(4 bytes @ 0xE0002000) -- CPU_ReadMem(4 bytes @ 0xE000EDFC) -- CPU_ReadMem(4 bytes @ 0xE0001000) (0075ms, 11820ms total)
T2014 1512:828 JLINK_ReadReg(R15 (PC))  returns 0x0800020C (0000ms, 11820ms total)
T2014 1512:828 JLINK_ReadReg(XPSR)  returns 0x01000000 (0001ms, 11821ms total)
T2014 1512:829 JLINK_Halt()  returns 0x00 (0000ms, 11821ms total)
T2014 1512:829 JLINK_ReadMemU32(0xE000EDF0, 0x0001 Items, ...) -- CPU_ReadMem(4 bytes @ 0xE000EDF0) - Data: 03 00 03 00  returns 1 (0001ms, 11822ms total)
T2014 1512:830 JLINK_WriteU32(0xE000EDF0, 0xA05F0003) -- CPU_WriteMem(4 bytes @ 0xE000EDF0)  returns 0 (0001ms, 11823ms total)
T2014 1512:831 JLINK_WriteU32(0xE000EDFC, 0x01000000) -- CPU_WriteMem(4 bytes @ 0xE000EDFC)  returns 0 (0001ms, 11824ms total)
T2014 1512:832 JLINK_GetHWStatus(...)  returns 0x00 (0001ms, 11825ms total)
T2014 1512:833 JLINK_GetNumBPUnits(Type = 0xFFFFFF00)  returns 0x06 (0000ms, 11825ms total)
T2014 1512:833 JLINK_GetNumBPUnits(Type = 0xF0)  returns 0x2000 (0000ms, 11825ms total)
T2014 1512:833 JLINK_GetNumWPUnits()  returns 0x04 (0000ms, 11825ms total)
T2014 1512:834 JLINK_GetSpeed()  returns 0xBB8 (0000ms, 11825ms total)
T2014 1512:834 JLINK_ReadMemU32(0xE000E004, 0x0001 Items, ...) -- CPU_ReadMem(4 bytes @ 0xE000E004) - Data: 02 00 00 00  returns 1 (0000ms, 11825ms total)
T2014 1512:834 JLINK_ReadMemU32(0xE000E004, 0x0001 Items, ...) -- CPU_ReadMem(4 bytes @ 0xE000E004) - Data: 02 00 00 00  returns 1 (0001ms, 11826ms total)
T2014 1512:835 JLINK_WriteMemEx(0xE0001000, 0x001C Bytes, ..., Flags = 0x02000004) - Data: 01 00 00 00 00 00 00 00 00 00 00 00 00 00 00 00 ... -- CPU_WriteMem(28 bytes @ 0xE0001000)  returns 0x1C (0003ms, 11829ms total)
T2014 1512:838 JLINK_ReadReg(R15 (PC))  returns 0x0800020C (0000ms, 11829ms total)
T2014 1512:838 JLINK_ReadReg(XPSR)  returns 0x01000000 (0000ms, 11829ms total)
T2014 1512:914 JLINK_SetResetType(JLINKARM_CM3_RESET_TYPE_NORMAL)  returns JLINKARM_CM3_RESET_TYPE_NORMAL (0000ms, 11829ms total)
T2014 1512:914 JLINK_Reset() -- CPU_WriteMem(4 bytes @ 0xE000EDF0) -- CPU_WriteMem(4 bytes @ 0xE000EDFC)Reset: Halt core after reset via DEMCR.VC_CORERESET.Reset: Reset device via AIRCR.SYSRESETREQ. -- CPU_WriteMem(4 bytes @ 0xE000ED0C) -- CPU_ReadMem(4 bytes @ 0xE000EDF0) -- CPU_ReadMem(4 bytes @ 0xE000EDF0) -- CPU_WriteMem(4 bytes @ 0xE000EDF0) -- CPU_WriteMem(4 bytes @ 0xE000EDFC) -- CPU_ReadMem(4 bytes @ 0xE000EDF0) -- CPU_WriteMem(4 bytes @ 0xE000EDFC) -- CPU_WriteMem(4 bytes @ 0xE0001028)
 -- CPU_WriteMem(4 bytes @ 0xE0001038) -- CPU_WriteMem(4 bytes @ 0xE0001048) -- CPU_WriteMem(4 bytes @ 0xE0001058) -- CPU_WriteMem(4 bytes @ 0xE0002000) -- CPU_ReadMem(4 bytes @ 0xE000EDFC) -- CPU_ReadMem(4 bytes @ 0xE0001000) (0077ms, 11906ms total)
T2014 1512:991 JLINK_ReadReg(R15 (PC))  returns 0x0800020C (0000ms, 11906ms total)
T2014 1512:991 JLINK_ReadReg(XPSR)  returns 0x01000000 (0000ms, 11906ms total)
T2014 1512:992 JLINK_ReadMemEx(0x0800020C, 0x003C Bytes, ..., Flags = 0x02000000) -- CPU_ReadMem(128 bytes @ 0x08000200) -- Updating C cache (128 bytes @ 0x08000200) -- Read from C cache (60 bytes @ 0x0800020C) - Data: 09 48 80 47 09 48 00 47 FE E7 FE E7 FE E7 FE E7 ...  returns 0x3C (0002ms, 11908ms total)
T2014 1513:238 JLINK_ReadMemEx(0x40021400, 0x0014 Bytes, ..., Flags = 0x02000004) -- CPU_ReadMem(20 bytes @ 0x40021400) - Data: 00 00 00 00 00 00 00 00 00 00 00 00 00 00 00 00 ...  returns 0x14 (0002ms, 11910ms total)
T2014 1513:240 JLINK_ReadMemEx(0x40021400, 0x0004 Bytes, ..., Flags = 0x02000004) -- CPU_ReadMem(4 bytes @ 0x40021400) - Data: 00 00 00 00  returns 0x04 (0001ms, 11911ms total)
T2014 1513:241 JLINK_ReadMemEx(0x40021404, 0x0004 Bytes, ..., Flags = 0x02000004) -- CPU_ReadMem(4 bytes @ 0x40021404) - Data: 00 00 00 00  returns 0x04 (0001ms, 11912ms total)
T2014 1513:242 JLINK_ReadMemEx(0x40021408, 0x0004 Bytes, ..., Flags = 0x02000004) -- CPU_ReadMem(4 bytes @ 0x40021408) - Data: 00 00 00 00  returns 0x04 (0001ms, 11913ms total)
T2014 1513:243 JLINK_ReadMemEx(0x4002140C, 0x0004 Bytes, ..., Flags = 0x02000004) -- CPU_ReadMem(4 bytes @ 0x4002140C) - Data: 00 00 00 00  returns 0x04 (0001ms, 11914ms total)
T2014 1513:244 JLINK_ReadMemEx(0x40021410, 0x0004 Bytes, ..., Flags = 0x02000004) -- CPU_ReadMem(4 bytes @ 0x40021410) - Data: 00 00 00 00  returns 0x04 (0001ms, 11915ms total)
T2014 1513:245 JLINK_ReadMemEx(0x40021414, 0x0004 Bytes, ..., Flags = 0x02000004) -- CPU_ReadMem(4 bytes @ 0x40021414) - Data: 00 00 00 00  returns 0x04 (0001ms, 11916ms total)
T2014 1513:246 JLINK_ReadMemEx(0x40021414, 0x0004 Bytes, ..., Flags = 0x02000004) -- CPU_ReadMem(4 bytes @ 0x40021414) - Data: 00 00 00 00  returns 0x04 (0001ms, 11917ms total)
T2014 1513:247 JLINK_ReadMemEx(0x4002141C, 0x0008 Bytes, ..., Flags = 0x02000004) -- CPU_ReadMem(8 bytes @ 0x4002141C) - Data: 00 00 00 00 00 00 00 00  returns 0x08 (0001ms, 11918ms total)
T2014 1513:248 JLINK_ReadMemEx(0x4002141C, 0x0004 Bytes, ..., Flags = 0x02000004) -- CPU_ReadMem(4 bytes @ 0x4002141C) - Data: 00 00 00 00  returns 0x04 (0001ms, 11919ms total)
T2014 1513:249 JLINK_ReadMemEx(0x40021420, 0x0004 Bytes, ..., Flags = 0x02000004) -- CPU_ReadMem(4 bytes @ 0x40021420) - Data: 00 00 00 00  returns 0x04 (0001ms, 11920ms total)
T2014 1513:250 JLINK_ReadMemEx(0x40021424, 0x0004 Bytes, ..., Flags = 0x02000004) -- CPU_ReadMem(4 bytes @ 0x40021424) - Data: 00 00 00 00  returns 0x04 (0001ms, 11921ms total)
T2014 1513:251 JLINK_ReadMemEx(0x40021424, 0x0004 Bytes, ..., Flags = 0x02000004) -- CPU_ReadMem(4 bytes @ 0x40021424) - Data: 00 00 00 00  returns 0x04 (0001ms, 11922ms total)
T2014 1516:607 JLINK_ReadReg(R0)  returns 0x00000000 (0002ms, 11924ms total)
T2014 1516:609 JLINK_ReadReg(R1)  returns 0x00000000 (0000ms, 11924ms total)
T2014 1516:609 JLINK_ReadReg(R2)  returns 0x00000000 (0000ms, 11924ms total)
T2014 1516:609 JLINK_ReadReg(R3)  returns 0x00000000 (0000ms, 11924ms total)
T2014 1516:609 JLINK_ReadReg(R4)  returns 0x00000000 (0000ms, 11924ms total)
T2014 1516:609 JLINK_ReadReg(R5)  returns 0x00000000 (0000ms, 11924ms total)
T2014 1516:609 JLINK_ReadReg(R6)  returns 0x00000000 (0000ms, 11924ms total)
T2014 1516:609 JLINK_ReadReg(R7)  returns 0x00000000 (0000ms, 11924ms total)
T2014 1516:609 JLINK_ReadReg(R8)  returns 0x00000000 (0000ms, 11924ms total)
T2014 1516:609 JLINK_ReadReg(R9)  returns 0x00000000 (0000ms, 11924ms total)
T2014 1516:609 JLINK_ReadReg(R10)  returns 0x00000000 (0001ms, 11925ms total)
T2014 1516:610 JLINK_ReadReg(R11)  returns 0x00000000 (0000ms, 11925ms total)
T2014 1516:610 JLINK_ReadReg(R12)  returns 0x00000000 (0000ms, 11925ms total)
T2014 1516:610 JLINK_ReadReg(R13 (SP))  returns 0x20000660 (0000ms, 11925ms total)
T2014 1516:610 JLINK_ReadReg(R14)  returns 0xFFFFFFFF (0000ms, 11925ms total)
T2014 1516:610 JLINK_ReadReg(R15 (PC))  returns 0x0800020C (0000ms, 11925ms total)
T2014 1516:610 JLINK_ReadReg(XPSR)  returns 0x01000000 (0000ms, 11925ms total)
T2014 1516:610 JLINK_ReadReg(MSP)  returns 0x20000660 (0000ms, 11925ms total)
T2014 1516:610 JLINK_ReadReg(PSP)  returns 0x00000000 (0000ms, 11925ms total)
T2014 1516:610 JLINK_ReadReg(CFBP)  returns 0x00000000 (0000ms, 11925ms total)
T2014 1516:610 JLINK_ReadReg(FPSCR)  returns 0x00000000 (0005ms, 11930ms total)
T2014 1516:615 JLINK_ReadReg(FPS0)  returns 0x00000000 (0000ms, 11930ms total)
T2014 1516:615 JLINK_ReadReg(FPS1)  returns 0x00000000 (0000ms, 11930ms total)
T2014 1516:615 JLINK_ReadReg(FPS2)  returns 0x00000000 (0000ms, 11930ms total)
T2014 1516:615 JLINK_ReadReg(FPS3)  returns 0x00000000 (0000ms, 11930ms total)
T2014 1516:615 JLINK_ReadReg(FPS4)  returns 0x00000000 (0000ms, 11930ms total)
T2014 1516:615 JLINK_ReadReg(FPS5)  returns 0x00000000 (0000ms, 11930ms total)
T2014 1516:615 JLINK_ReadReg(FPS6)  returns 0x00000000 (0000ms, 11930ms total)
T2014 1516:615 JLINK_ReadReg(FPS7)  returns 0x00000000 (0001ms, 11931ms total)
T2014 1516:616 JLINK_ReadReg(FPS8)  returns 0x00000000 (0000ms, 11931ms total)
T2014 1516:616 JLINK_ReadReg(FPS9)  returns 0x00000000 (0000ms, 11931ms total)
T2014 1516:616 JLINK_ReadReg(FPS10)  returns 0x00000000 (0000ms, 11931ms total)
T2014 1516:616 JLINK_ReadReg(FPS11)  returns 0x00000000 (0000ms, 11931ms total)
T2014 1516:616 JLINK_ReadReg(FPS12)  returns 0x00000000 (0000ms, 11931ms total)
T2014 1516:616 JLINK_ReadReg(FPS13)  returns 0x00000000 (0000ms, 11931ms total)
T2014 1516:616 JLINK_ReadReg(FPS14)  returns 0x00000000 (0000ms, 11931ms total)
T2014 1516:616 JLINK_ReadReg(FPS15)  returns 0x00000000 (0000ms, 11931ms total)
T2014 1516:616 JLINK_ReadReg(FPS16)  returns 0x00000000 (0000ms, 11931ms total)
T2014 1516:616 JLINK_ReadReg(FPS17)  returns 0x00000000 (0000ms, 11931ms total)
T2014 1516:616 JLINK_ReadReg(FPS18)  returns 0x00000000 (0000ms, 11931ms total)
T2014 1516:616 JLINK_ReadReg(FPS19)  returns 0x00000000 (0000ms, 11931ms total)
T2014 1516:616 JLINK_ReadReg(FPS20)  returns 0x00000000 (0000ms, 11931ms total)
T2014 1516:616 JLINK_ReadReg(FPS21)  returns 0x00000000 (0000ms, 11931ms total)
T2014 1516:617 JLINK_ReadReg(FPS22)  returns 0x00000000 (0000ms, 11931ms total)
T2014 1516:617 JLINK_ReadReg(FPS23)  returns 0x00000000 (0000ms, 11931ms total)
T2014 1516:617 JLINK_ReadReg(FPS24)  returns 0x00000000 (0000ms, 11931ms total)
T2014 1516:617 JLINK_ReadReg(FPS25)  returns 0x00000000 (0000ms, 11931ms total)
T2014 1516:617 JLINK_ReadReg(FPS26)  returns 0x00000000 (0000ms, 11931ms total)
T2014 1516:617 JLINK_ReadReg(FPS27)  returns 0x00000000 (0000ms, 11931ms total)
T2014 1516:617 JLINK_ReadReg(FPS28)  returns 0x00000000 (0000ms, 11931ms total)
T2014 1516:617 JLINK_ReadReg(FPS29)  returns 0x00000000 (0000ms, 11931ms total)
T2014 1516:617 JLINK_ReadReg(FPS30)  returns 0x00000000 (0000ms, 11931ms total)
T2014 1516:617 JLINK_ReadReg(FPS31)  returns 0x00000000 (0000ms, 11931ms total)
T22C0 1516:660 JLINK_ReadMemEx(0x0800020C, 0x0002 Bytes, ..., Flags = 0x02000000) -- Read from C cache (2 bytes @ 0x0800020C) - Data: 09 48  returns 0x02 (0000ms, 11931ms total)
T22C0 1516:660 JLINK_SetBPEx(Addr = 0x0800032C, Type = 0xFFFFFFF2)  returns 0x00000001 (0000ms, 11931ms total)
T22C0 1516:660 JLINK_Go() -- CPU_ReadMem(4 bytes @ 0xE0001000) -- CPU_WriteMem(4 bytes @ 0xE0002008) -- CPU_WriteMem(4 bytes @ 0xE000200C) -- CPU_WriteMem(4 bytes @ 0xE0002010) -- CPU_WriteMem(4 bytes @ 0xE0002014) -- CPU_WriteMem(4 bytes @ 0xE0002018) -- CPU_WriteMem(4 bytes @ 0xE000201C) -- CPU_WriteMem(4 bytes @ 0xE0001004) (0006ms, 11937ms total)
T22C0 1516:766 JLINK_IsHalted()  returns TRUE (0004ms, 11941ms total)
T22C0 1516:770 JLINK_Halt()  returns 0x00 (0000ms, 11937ms total)
T22C0 1516:770 JLINK_IsHalted()  returns TRUE (0000ms, 11937ms total)
T22C0 1516:770 JLINK_IsHalted()  returns TRUE (0000ms, 11937ms total)
T22C0 1516:770 JLINK_IsHalted()  returns TRUE (0000ms, 11937ms total)
T22C0 1516:770 JLINK_ReadReg(R15 (PC))  returns 0x0800032C (0000ms, 11937ms total)
T22C0 1516:770 JLINK_ReadReg(XPSR)  returns 0x21000000 (0000ms, 11937ms total)
T22C0 1516:770 JLINK_ClrBPEx(BPHandle = 0x00000001)  returns 0x00 (0000ms, 11937ms total)
T22C0 1516:770 JLINK_ReadMemU32(0xE000ED30, 0x0001 Items, ...) -- CPU_ReadMem(4 bytes @ 0xE000ED30) - Data: 02 00 00 00  returns 1 (0002ms, 11939ms total)
T22C0 1516:772 JLINK_ReadMemU32(0xE0001028, 0x0001 Items, ...) -- CPU_ReadMem(4 bytes @ 0xE0001028) - Data: 00 00 00 00  returns 1 (0001ms, 11940ms total)
T22C0 1516:774 JLINK_ReadMemU32(0xE0001038, 0x0001 Items, ...) -- CPU_ReadMem(4 bytes @ 0xE0001038) - Data: 00 02 00 00  returns 1 (0001ms, 11941ms total)
T22C0 1516:775 JLINK_ReadMemU32(0xE0001048, 0x0001 Items, ...) -- CPU_ReadMem(4 bytes @ 0xE0001048) - Data: 00 00 00 00  returns 1 (0001ms, 11942ms total)
T22C0 1516:776 JLINK_ReadMemU32(0xE0001058, 0x0001 Items, ...) -- CPU_ReadMem(4 bytes @ 0xE0001058) - Data: 00 00 00 00  returns 1 (0001ms, 11943ms total)
T22C0 1516:777 JLINK_ReadReg(R0)  returns 0x20000060 (0000ms, 11943ms total)
T22C0 1516:777 JLINK_ReadReg(R1)  returns 0x20000260 (0000ms, 11943ms total)
T22C0 1516:777 JLINK_ReadReg(R2)  returns 0x20000260 (0000ms, 11943ms total)
T22C0 1516:777 JLINK_ReadReg(R3)  returns 0x20000260 (0000ms, 11943ms total)
T22C0 1516:777 JLINK_ReadReg(R4)  returns 0x00000000 (0000ms, 11943ms total)
T22C0 1516:777 JLINK_ReadReg(R5)  returns 0x20000000 (0000ms, 11943ms total)
T22C0 1516:777 JLINK_ReadReg(R6)  returns 0x00000000 (0000ms, 11943ms total)
T22C0 1516:777 JLINK_ReadReg(R7)  returns 0x00000000 (0000ms, 11943ms total)
T22C0 1516:777 JLINK_ReadReg(R8)  returns 0x00000000 (0000ms, 11943ms total)
T22C0 1516:777 JLINK_ReadReg(R9)  returns 0x00000000 (0001ms, 11944ms total)
T22C0 1516:778 JLINK_ReadReg(R10)  returns 0x080003AC (0000ms, 11944ms total)
T22C0 1516:778 JLINK_ReadReg(R11)  returns 0x00000000 (0000ms, 11944ms total)
T22C0 1516:778 JLINK_ReadReg(R12)  returns 0x20000040 (0000ms, 11944ms total)
T22C0 1516:778 JLINK_ReadReg(R13 (SP))  returns 0x20000660 (0000ms, 11944ms total)
T22C0 1516:778 JLINK_ReadReg(R14)  returns 0x080001FB (0000ms, 11944ms total)
T22C0 1516:778 JLINK_ReadReg(R15 (PC))  returns 0x0800032C (0000ms, 11944ms total)
T22C0 1516:778 JLINK_ReadReg(XPSR)  returns 0x21000000 (0000ms, 11944ms total)
T22C0 1516:778 JLINK_ReadReg(MSP)  returns 0x20000660 (0000ms, 11944ms total)
T22C0 1516:778 JLINK_ReadReg(PSP)  returns 0x00000000 (0000ms, 11944ms total)
T22C0 1516:778 JLINK_ReadReg(CFBP)  returns 0x04000000 (0000ms, 11944ms total)
T22C0 1516:778 JLINK_ReadReg(FPSCR)  returns 0x03000000 (0005ms, 11949ms total)
T22C0 1516:783 JLINK_ReadReg(FPS0)  returns 0x00000000 (0000ms, 11949ms total)
T22C0 1516:783 JLINK_ReadReg(FPS1)  returns 0x00000000 (0000ms, 11949ms total)
T22C0 1516:783 JLINK_ReadReg(FPS2)  returns 0x00000000 (0000ms, 11949ms total)
T22C0 1516:783 JLINK_ReadReg(FPS3)  returns 0x00000000 (0000ms, 11949ms total)
T22C0 1516:783 JLINK_ReadReg(FPS4)  returns 0x00000000 (0000ms, 11949ms total)
T22C0 1516:783 JLINK_ReadReg(FPS5)  returns 0x00000000 (0000ms, 11949ms total)
T22C0 1516:783 JLINK_ReadReg(FPS6)  returns 0x00000000 (0000ms, 11949ms total)
T22C0 1516:783 JLINK_ReadReg(FPS7)  returns 0x00000000 (0000ms, 11949ms total)
T22C0 1516:783 JLINK_ReadReg(FPS8)  returns 0x00000000 (0000ms, 11949ms total)
T22C0 1516:783 JLINK_ReadReg(FPS9)  returns 0x00000000 (0000ms, 11949ms total)
T22C0 1516:783 JLINK_ReadReg(FPS10)  returns 0x00000000 (0000ms, 11949ms total)
T22C0 1516:784 JLINK_ReadReg(FPS11)  returns 0x00000000 (0000ms, 11950ms total)
T22C0 1516:784 JLINK_ReadReg(FPS12)  returns 0x00000000 (0000ms, 11950ms total)
T22C0 1516:784 JLINK_ReadReg(FPS13)  returns 0x00000000 (0000ms, 11950ms total)
T22C0 1516:784 JLINK_ReadReg(FPS14)  returns 0x00000000 (0000ms, 11950ms total)
T22C0 1516:784 JLINK_ReadReg(FPS15)  returns 0x00000000 (0000ms, 11950ms total)
T22C0 1516:784 JLINK_ReadReg(FPS16)  returns 0x00000000 (0000ms, 11950ms total)
T22C0 1516:784 JLINK_ReadReg(FPS17)  returns 0x00000000 (0000ms, 11950ms total)
T22C0 1516:784 JLINK_ReadReg(FPS18)  returns 0x00000000 (0000ms, 11950ms total)
T22C0 1516:784 JLINK_ReadReg(FPS19)  returns 0x00000000 (0000ms, 11950ms total)
T22C0 1516:784 JLINK_ReadReg(FPS20)  returns 0x00000000 (0000ms, 11950ms total)
T22C0 1516:784 JLINK_ReadReg(FPS21)  returns 0x00000000 (0000ms, 11950ms total)
T22C0 1516:784 JLINK_ReadReg(FPS22)  returns 0x00000000 (0000ms, 11950ms total)
T22C0 1516:784 JLINK_ReadReg(FPS23)  returns 0x00000000 (0000ms, 11950ms total)
T22C0 1516:784 JLINK_ReadReg(FPS24)  returns 0x00000000 (0000ms, 11950ms total)
T22C0 1516:784 JLINK_ReadReg(FPS25)  returns 0x00000000 (0000ms, 11950ms total)
T22C0 1516:784 JLINK_ReadReg(FPS26)  returns 0x00000000 (0000ms, 11950ms total)
T22C0 1516:784 JLINK_ReadReg(FPS27)  returns 0x00000000 (0000ms, 11950ms total)
T22C0 1516:784 JLINK_ReadReg(FPS28)  returns 0x00000000 (0000ms, 11950ms total)
T22C0 1516:784 JLINK_ReadReg(FPS29)  returns 0x00000000 (0001ms, 11951ms total)
T22C0 1516:785 JLINK_ReadReg(FPS30)  returns 0x00000000 (0000ms, 11951ms total)
T22C0 1516:785 JLINK_ReadReg(FPS31)  returns 0x00000000 (0000ms, 11951ms total)
T2014 1516:785 JLINK_ReadMemEx(0x00000000, 0x0004 Bytes, ..., Flags = 0x02000000) -- CPU_ReadMem(4 bytes @ 0x40023844) -- CPU_ReadMem(64 bytes @ 0x08000000) -- Updating C cache (64 bytes @ 0x08000000) -- Read from C cache (4 bytes @ 0x08000000) - Data: 60 06 00 20  returns 0x04 (0003ms, 11954ms total)
T2014 1516:796 JLINK_ReadMemU32(0xE0001004, 0x0001 Items, ...) -- CPU_ReadMem(4 bytes @ 0xE0001004) - Data: 06 04 00 00  returns 1 (0002ms, 11956ms total)
T2014 1516:798 JLINK_ReadMemEx(0x40021400, 0x0014 Bytes, ..., Flags = 0x02000004) -- CPU_ReadMem(20 bytes @ 0x40021400) - Data: 00 00 00 00 00 00 00 00 00 00 00 00 00 00 00 00 ...  returns 0x14 (0002ms, 11958ms total)
T2014 1516:800 JLINK_ReadMemEx(0x40021400, 0x0004 Bytes, ..., Flags = 0x02000004) -- CPU_ReadMem(4 bytes @ 0x40021400) - Data: 00 00 00 00  returns 0x04 (0001ms, 11959ms total)
T2014 1516:801 JLINK_ReadMemEx(0x40021404, 0x0004 Bytes, ..., Flags = 0x02000004) -- CPU_ReadMem(4 bytes @ 0x40021404) - Data: 00 00 00 00  returns 0x04 (0001ms, 11960ms total)
T2014 1516:802 JLINK_ReadMemEx(0x40021408, 0x0004 Bytes, ..., Flags = 0x02000004) -- CPU_ReadMem(4 bytes @ 0x40021408) - Data: 00 00 00 00  returns 0x04 (0001ms, 11961ms total)
T2014 1516:803 JLINK_ReadMemEx(0x4002140C, 0x0004 Bytes, ..., Flags = 0x02000004) -- CPU_ReadMem(4 bytes @ 0x4002140C) - Data: 00 00 00 00  returns 0x04 (0001ms, 11962ms total)
T2014 1516:804 JLINK_ReadMemEx(0x40021410, 0x0004 Bytes, ..., Flags = 0x02000004) -- CPU_ReadMem(4 bytes @ 0x40021410) - Data: 00 00 00 00  returns 0x04 (0001ms, 11963ms total)
T2014 1516:805 JLINK_ReadMemEx(0x40021414, 0x0004 Bytes, ..., Flags = 0x02000004) -- CPU_ReadMem(4 bytes @ 0x40021414) - Data: 00 00 00 00  returns 0x04 (0001ms, 11964ms total)
T2014 1516:806 JLINK_ReadMemEx(0x40021414, 0x0004 Bytes, ..., Flags = 0x02000004) -- CPU_ReadMem(4 bytes @ 0x40021414) - Data: 00 00 00 00  returns 0x04 (0001ms, 11965ms total)
T2014 1516:807 JLINK_ReadMemEx(0x4002141C, 0x0008 Bytes, ..., Flags = 0x02000004) -- CPU_ReadMem(8 bytes @ 0x4002141C) - Data: 00 00 00 00 00 00 00 00  returns 0x08 (0001ms, 11966ms total)
T2014 1516:808 JLINK_ReadMemEx(0x4002141C, 0x0004 Bytes, ..., Flags = 0x02000004) -- CPU_ReadMem(4 bytes @ 0x4002141C) - Data: 00 00 00 00  returns 0x04 (0001ms, 11967ms total)
T2014 1516:809 JLINK_ReadMemEx(0x40021420, 0x0004 Bytes, ..., Flags = 0x02000004) -- CPU_ReadMem(4 bytes @ 0x40021420) - Data: 00 00 00 00  returns 0x04 (0001ms, 11968ms total)
T2014 1516:810 JLINK_ReadMemEx(0x40021424, 0x0004 Bytes, ..., Flags = 0x02000004) -- CPU_ReadMem(4 bytes @ 0x40021424) - Data: 00 00 00 00  returns 0x04 (0001ms, 11969ms total)
T2014 1516:811 JLINK_ReadMemEx(0x40021424, 0x0004 Bytes, ..., Flags = 0x02000004) -- CPU_ReadMem(4 bytes @ 0x40021424) - Data: 00 00 00 00  returns 0x04 (0001ms, 11970ms total)
T2014 1516:816 JLINK_ReadMemEx(0x0800032C, 0x003C Bytes, ..., Flags = 0x02000000) -- CPU_ReadMem(128 bytes @ 0x08000300) -- Updating C cache (128 bytes @ 0x08000300) -- Read from C cache (60 bytes @ 0x0800032C) - Data: 15 48 00 68 40 F0 20 00 13 49 08 60 08 46 00 68 ...  returns 0x3C (0002ms, 11972ms total)
T22C0 1530:904 JLINK_ReadMemEx(0x0800032C, 0x0002 Bytes, ..., Flags = 0x02000000) -- Read from C cache (2 bytes @ 0x0800032C) - Data: 15 48  returns 0x02 (0000ms, 11972ms total)
T22C0 1530:904 JLINK_Step() -- Read from C cache (2 bytes @ 0x0800032C) -- CPU_ReadMem(4 bytes @ 0xE000ED18) -- CPU_WriteMem(4 bytes @ 0xE000ED18) -- CPU_ReadMem(4 bytes @ 0xE000ED18) -- CPU_WriteMem(4 bytes @ 0xE000ED18) -- CPU_ReadMem(64 bytes @ 0x08000380) -- Updating C cache (64 bytes @ 0x08000380) -- Read from C cache (4 bytes @ 0x08000384) -- Simulated  returns 0x00 (0012ms, 11984ms total)
T22C0 1530:917 JLINK_ReadReg(R15 (PC))  returns 0x0800032E (0000ms, 11984ms total)
T22C0 1530:917 JLINK_ReadReg(XPSR)  returns 0x21000000 (0000ms, 11984ms total)
T22C0 1530:917 JLINK_Step() -- Read from C cache (2 bytes @ 0x0800032E) -- Not simulated -- CPU_WriteMem(4 bytes @ 0xE0002008) -- CPU_WriteMem(4 bytes @ 0xE0001004)  returns 0x00 (0008ms, 11992ms total)
T22C0 1530:925 JLINK_ReadReg(R15 (PC))  returns 0x08000330 (0000ms, 11992ms total)
T22C0 1530:925 JLINK_ReadReg(XPSR)  returns 0x21000000 (0000ms, 11992ms total)
T22C0 1530:925 JLINK_Step() -- CPU_ReadMem(64 bytes @ 0x08000300) -- Updating C cache (64 bytes @ 0x08000300) -- Read from C cache (2 bytes @ 0x08000330) -- CPU_ReadMem(4 bytes @ 0xE0001004) -- Read from C cache (2 bytes @ 0x08000332) -- Simulated  returns 0x00 (0003ms, 11995ms total)
T22C0 1530:928 JLINK_ReadReg(R15 (PC))  returns 0x08000334 (0000ms, 11995ms total)
T22C0 1530:928 JLINK_ReadReg(XPSR)  returns 0x21000000 (0000ms, 11995ms total)
T22C0 1530:928 JLINK_ReadMemEx(0x08000332, 0x0002 Bytes, ..., Flags = 0x02000000) -- Read from C cache (2 bytes @ 0x08000332) - Data: 20 00  returns 0x02 (0000ms, 11995ms total)
T22C0 1530:928 JLINK_ReadMemEx(0x08000334, 0x003C Bytes, ..., Flags = 0x02000000) -- CPU_ReadMem(64 bytes @ 0x08000340) -- Updating C cache (64 bytes @ 0x08000340) -- Read from C cache (60 bytes @ 0x08000334) - Data: 13 49 08 60 08 46 00 68 12 48 00 68 40 F4 80 10 ...  returns 0x3C (0002ms, 11997ms total)
T22C0 1530:930 JLINK_ReadMemEx(0x08000334, 0x0002 Bytes, ..., Flags = 0x02000000) -- Read from C cache (2 bytes @ 0x08000334) - Data: 13 49  returns 0x02 (0000ms, 11997ms total)
T22C0 1530:930 JLINK_ReadMemEx(0x08000334, 0x003C Bytes, ..., Flags = 0x02000000) -- Read from C cache (60 bytes @ 0x08000334) - Data: 13 49 08 60 08 46 00 68 12 48 00 68 40 F4 80 10 ...  returns 0x3C (0000ms, 11997ms total)
T22C0 1530:930 JLINK_ReadMemEx(0x08000334, 0x0002 Bytes, ..., Flags = 0x02000000) -- Read from C cache (2 bytes @ 0x08000334) - Data: 13 49  returns 0x02 (0000ms, 11997ms total)
T22C0 1530:931 JLINK_ReadMemEx(0x08000336, 0x0002 Bytes, ..., Flags = 0x02000000) -- Read from C cache (2 bytes @ 0x08000336) - Data: 08 60  returns 0x02 (0000ms, 11997ms total)
T22C0 1530:931 JLINK_Step() -- Read from C cache (2 bytes @ 0x08000334) -- CPU_ReadMem(64 bytes @ 0x08000380) -- Updating C cache (64 bytes @ 0x08000380) -- Read from C cache (4 bytes @ 0x08000384) -- Simulated  returns 0x00 (0001ms, 11998ms total)
T22C0 1530:932 JLINK_ReadReg(R15 (PC))  returns 0x08000336 (0000ms, 11998ms total)
T22C0 1530:932 JLINK_ReadReg(XPSR)  returns 0x21000000 (0000ms, 11998ms total)
T22C0 1530:932 JLINK_ReadMemEx(0x08000336, 0x0002 Bytes, ..., Flags = 0x02000000) -- Read from C cache (2 bytes @ 0x08000336) - Data: 08 60  returns 0x02 (0000ms, 11998ms total)
T22C0 1530:932 JLINK_ReadMemEx(0x08000338, 0x003C Bytes, ..., Flags = 0x02000000) -- Read from C cache (60 bytes @ 0x08000338) - Data: 08 46 00 68 12 48 00 68 40 F4 80 10 10 49 08 60 ...  returns 0x3C (0001ms, 11999ms total)
T22C0 1530:933 JLINK_ReadMemEx(0x08000338, 0x0002 Bytes, ..., Flags = 0x02000000) -- Read from C cache (2 bytes @ 0x08000338) - Data: 08 46  returns 0x02 (0000ms, 11999ms total)
T22C0 1530:933 JLINK_Step() -- Read from C cache (2 bytes @ 0x08000336) -- Not simulated -- CPU_WriteMem(4 bytes @ 0xE0001004)  returns 0x00 (0006ms, 12005ms total)
T22C0 1530:940 JLINK_ReadReg(R15 (PC))  returns 0x08000338 (0000ms, 12006ms total)
T22C0 1530:940 JLINK_ReadReg(XPSR)  returns 0x21000000 (0000ms, 12006ms total)
T22C0 1530:940 JLINK_ReadReg(R0)  returns 0x00100020 (0000ms, 12006ms total)
T22C0 1530:940 JLINK_ReadReg(R1)  returns 0x40023830 (0000ms, 12006ms total)
T22C0 1530:940 JLINK_ReadReg(R2)  returns 0x20000260 (0000ms, 12006ms total)
T22C0 1530:940 JLINK_ReadReg(R3)  returns 0x20000260 (0000ms, 12006ms total)
T22C0 1530:940 JLINK_ReadReg(R4)  returns 0x00000000 (0000ms, 12006ms total)
T22C0 1530:940 JLINK_ReadReg(R5)  returns 0x20000000 (0000ms, 12006ms total)
T22C0 1530:940 JLINK_ReadReg(R6)  returns 0x00000000 (0000ms, 12006ms total)
T22C0 1530:940 JLINK_ReadReg(R7)  returns 0x00000000 (0000ms, 12006ms total)
T22C0 1530:940 JLINK_ReadReg(R8)  returns 0x00000000 (0000ms, 12006ms total)
T22C0 1530:940 JLINK_ReadReg(R9)  returns 0x00000000 (0000ms, 12006ms total)
T22C0 1530:940 JLINK_ReadReg(R10)  returns 0x080003AC (0000ms, 12006ms total)
T22C0 1530:940 JLINK_ReadReg(R11)  returns 0x00000000 (0000ms, 12006ms total)
T22C0 1530:940 JLINK_ReadReg(R12)  returns 0x20000040 (0000ms, 12006ms total)
T22C0 1530:941 JLINK_ReadReg(R13 (SP))  returns 0x20000660 (0000ms, 12007ms total)
T22C0 1530:941 JLINK_ReadReg(R14)  returns 0x080001FB (0000ms, 12007ms total)
T22C0 1530:941 JLINK_ReadReg(R15 (PC))  returns 0x08000338 (0000ms, 12007ms total)
T22C0 1530:941 JLINK_ReadReg(XPSR)  returns 0x21000000 (0000ms, 12007ms total)
T22C0 1530:941 JLINK_ReadReg(MSP)  returns 0x20000660 (0000ms, 12007ms total)
T22C0 1530:941 JLINK_ReadReg(PSP)  returns 0x00000000 (0000ms, 12007ms total)
T22C0 1530:941 JLINK_ReadReg(CFBP)  returns 0x04000000 (0000ms, 12007ms total)
T22C0 1530:941 JLINK_ReadReg(FPSCR)  returns 0x03000000 (0005ms, 12012ms total)
T22C0 1530:946 JLINK_ReadReg(FPS0)  returns 0x00000000 (0000ms, 12012ms total)
T22C0 1530:946 JLINK_ReadReg(FPS1)  returns 0x00000000 (0000ms, 12012ms total)
T22C0 1530:946 JLINK_ReadReg(FPS2)  returns 0x00000000 (0000ms, 12012ms total)
T22C0 1530:946 JLINK_ReadReg(FPS3)  returns 0x00000000 (0000ms, 12012ms total)
T22C0 1530:946 JLINK_ReadReg(FPS4)  returns 0x00000000 (0000ms, 12012ms total)
T22C0 1530:946 JLINK_ReadReg(FPS5)  returns 0x00000000 (0000ms, 12012ms total)
T22C0 1530:946 JLINK_ReadReg(FPS6)  returns 0x00000000 (0000ms, 12012ms total)
T22C0 1530:946 JLINK_ReadReg(FPS7)  returns 0x00000000 (0001ms, 12013ms total)
T22C0 1530:947 JLINK_ReadReg(FPS8)  returns 0x00000000 (0000ms, 12013ms total)
T22C0 1530:947 JLINK_ReadReg(FPS9)  returns 0x00000000 (0000ms, 12013ms total)
T22C0 1530:947 JLINK_ReadReg(FPS10)  returns 0x00000000 (0000ms, 12013ms total)
T22C0 1530:947 JLINK_ReadReg(FPS11)  returns 0x00000000 (0000ms, 12013ms total)
T22C0 1530:947 JLINK_ReadReg(FPS12)  returns 0x00000000 (0000ms, 12013ms total)
T22C0 1530:947 JLINK_ReadReg(FPS13)  returns 0x00000000 (0000ms, 12013ms total)
T22C0 1530:947 JLINK_ReadReg(FPS14)  returns 0x00000000 (0000ms, 12013ms total)
T22C0 1530:947 JLINK_ReadReg(FPS15)  returns 0x00000000 (0000ms, 12013ms total)
T22C0 1530:947 JLINK_ReadReg(FPS16)  returns 0x00000000 (0000ms, 12013ms total)
T22C0 1530:947 JLINK_ReadReg(FPS17)  returns 0x00000000 (0000ms, 12013ms total)
T22C0 1530:947 JLINK_ReadReg(FPS18)  returns 0x00000000 (0000ms, 12013ms total)
T22C0 1530:947 JLINK_ReadReg(FPS19)  returns 0x00000000 (0000ms, 12013ms total)
T22C0 1530:947 JLINK_ReadReg(FPS20)  returns 0x00000000 (0000ms, 12013ms total)
T22C0 1530:947 JLINK_ReadReg(FPS21)  returns 0x00000000 (0000ms, 12013ms total)
T22C0 1530:947 JLINK_ReadReg(FPS22)  returns 0x00000000 (0000ms, 12013ms total)
T22C0 1530:947 JLINK_ReadReg(FPS23)  returns 0x00000000 (0000ms, 12013ms total)
T22C0 1530:947 JLINK_ReadReg(FPS24)  returns 0x00000000 (0000ms, 12013ms total)
T22C0 1530:947 JLINK_ReadReg(FPS25)  returns 0x00000000 (0000ms, 12013ms total)
T22C0 1530:947 JLINK_ReadReg(FPS26)  returns 0x00000000 (0001ms, 12014ms total)
T22C0 1530:948 JLINK_ReadReg(FPS27)  returns 0x00000000 (0000ms, 12014ms total)
T22C0 1530:948 JLINK_ReadReg(FPS28)  returns 0x00000000 (0000ms, 12014ms total)
T22C0 1530:948 JLINK_ReadReg(FPS29)  returns 0x00000000 (0000ms, 12014ms total)
T22C0 1530:948 JLINK_ReadReg(FPS30)  returns 0x00000000 (0000ms, 12014ms total)
T22C0 1530:948 JLINK_ReadReg(FPS31)  returns 0x00000000 (0000ms, 12014ms total)
T2014 1530:948 JLINK_ReadMemEx(0x00000000, 0x0004 Bytes, ..., Flags = 0x02000000) -- CPU_ReadMem(4 bytes @ 0x40023844) -- CPU_ReadMem(64 bytes @ 0x08000000) -- Updating C cache (64 bytes @ 0x08000000) -- Read from C cache (4 bytes @ 0x08000000) - Data: 60 06 00 20  returns 0x04 (0003ms, 12017ms total)
T2014 1530:951 JLINK_ReadMemU32(0xE0001004, 0x0001 Items, ...) -- CPU_ReadMem(4 bytes @ 0xE0001004) - Data: 0F 04 00 00  returns 1 (0001ms, 12018ms total)
T2014 1530:952 JLINK_ReadMemEx(0x40021400, 0x0014 Bytes, ..., Flags = 0x02000004) -- CPU_ReadMem(20 bytes @ 0x40021400) - Data: 00 00 00 00 00 00 00 00 00 00 00 00 00 00 00 00 ...  returns 0x14 (0001ms, 12019ms total)
T2014 1530:954 JLINK_ReadMemEx(0x40021400, 0x0004 Bytes, ..., Flags = 0x02000004) -- CPU_ReadMem(4 bytes @ 0x40021400) - Data: 00 00 00 00  returns 0x04 (0000ms, 12019ms total)
T2014 1530:955 JLINK_ReadMemEx(0x40021404, 0x0004 Bytes, ..., Flags = 0x02000004) -- CPU_ReadMem(4 bytes @ 0x40021404) - Data: 00 00 00 00  returns 0x04 (0000ms, 12019ms total)
T2014 1530:956 JLINK_ReadMemEx(0x40021408, 0x0004 Bytes, ..., Flags = 0x02000004) -- CPU_ReadMem(4 bytes @ 0x40021408) - Data: 00 00 00 00  returns 0x04 (0000ms, 12019ms total)
T2014 1530:957 JLINK_ReadMemEx(0x4002140C, 0x0004 Bytes, ..., Flags = 0x02000004) -- CPU_ReadMem(4 bytes @ 0x4002140C) - Data: 00 00 00 00  returns 0x04 (0000ms, 12019ms total)
T2014 1530:958 JLINK_ReadMemEx(0x40021410, 0x0004 Bytes, ..., Flags = 0x02000004) -- CPU_ReadMem(4 bytes @ 0x40021410) - Data: 83 7F 00 00  returns 0x04 (0001ms, 12020ms total)
T2014 1530:959 JLINK_ReadMemEx(0x40021414, 0x0004 Bytes, ..., Flags = 0x02000004) -- CPU_ReadMem(4 bytes @ 0x40021414) - Data: 00 00 00 00  returns 0x04 (0001ms, 12021ms total)
T2014 1530:961 JLINK_ReadMemEx(0x40021414, 0x0004 Bytes, ..., Flags = 0x02000004) -- CPU_ReadMem(4 bytes @ 0x40021414) - Data: 00 00 00 00  returns 0x04 (0000ms, 12021ms total)
T2014 1530:962 JLINK_ReadMemEx(0x4002141C, 0x0008 Bytes, ..., Flags = 0x02000004) -- CPU_ReadMem(8 bytes @ 0x4002141C) - Data: 00 00 00 00 00 00 00 00  returns 0x08 (0000ms, 12021ms total)
T2014 1530:963 JLINK_ReadMemEx(0x4002141C, 0x0004 Bytes, ..., Flags = 0x02000004) -- CPU_ReadMem(4 bytes @ 0x4002141C) - Data: 00 00 00 00  returns 0x04 (0000ms, 12021ms total)
T2014 1530:964 JLINK_ReadMemEx(0x40021420, 0x0004 Bytes, ..., Flags = 0x02000004) -- CPU_ReadMem(4 bytes @ 0x40021420) - Data: 00 00 00 00  returns 0x04 (0000ms, 12021ms total)
T2014 1530:965 JLINK_ReadMemEx(0x40021424, 0x0004 Bytes, ..., Flags = 0x02000004) -- CPU_ReadMem(4 bytes @ 0x40021424) - Data: 00 00 00 00  returns 0x04 (0000ms, 12021ms total)
T2014 1530:966 JLINK_ReadMemEx(0x40021424, 0x0004 Bytes, ..., Flags = 0x02000004) -- CPU_ReadMem(4 bytes @ 0x40021424) - Data: 00 00 00 00  returns 0x04 (0000ms, 12021ms total)
T2014 1530:978 JLINK_ReadMemEx(0x08000338, 0x003C Bytes, ..., Flags = 0x02000000) -- CPU_ReadMem(128 bytes @ 0x08000300) -- Updating C cache (128 bytes @ 0x08000300) -- Read from C cache (60 bytes @ 0x08000338) - Data: 08 46 00 68 12 48 00 68 40 F4 80 10 10 49 08 60 ...  returns 0x3C (0002ms, 12023ms total)
T22C0 1534:366 JLINK_ReadMemEx(0x08000338, 0x0002 Bytes, ..., Flags = 0x02000000) -- Read from C cache (2 bytes @ 0x08000338) - Data: 08 46  returns 0x02 (0000ms, 12023ms total)
T22C0 1534:366 JLINK_Step() -- Read from C cache (2 bytes @ 0x08000338) -- Simulated  returns 0x00 (0005ms, 12028ms total)
T22C0 1534:371 JLINK_ReadReg(R15 (PC))  returns 0x0800033A (0000ms, 12028ms total)
T22C0 1534:371 JLINK_ReadReg(XPSR)  returns 0x21000000 (0000ms, 12028ms total)
T22C0 1534:371 JLINK_Step() -- Read from C cache (2 bytes @ 0x0800033A) -- Not simulated -- CPU_WriteMem(4 bytes @ 0xE0001004)  returns 0x00 (0007ms, 12035ms total)
T22C0 1534:378 JLINK_ReadReg(R15 (PC))  returns 0x0800033C (0000ms, 12035ms total)
T22C0 1534:378 JLINK_ReadReg(XPSR)  returns 0x21000000 (0001ms, 12036ms total)
T22C0 1534:379 JLINK_ReadReg(R0)  returns 0x00100020 (0000ms, 12036ms total)
T22C0 1534:379 JLINK_ReadReg(R1)  returns 0x40023830 (0000ms, 12036ms total)
T22C0 1534:379 JLINK_ReadReg(R2)  returns 0x20000260 (0000ms, 12036ms total)
T22C0 1534:379 JLINK_ReadReg(R3)  returns 0x20000260 (0000ms, 12036ms total)
T22C0 1534:379 JLINK_ReadReg(R4)  returns 0x00000000 (0000ms, 12036ms total)
T22C0 1534:379 JLINK_ReadReg(R5)  returns 0x20000000 (0000ms, 12036ms total)
T22C0 1534:379 JLINK_ReadReg(R6)  returns 0x00000000 (0000ms, 12036ms total)
T22C0 1534:379 JLINK_ReadReg(R7)  returns 0x00000000 (0000ms, 12036ms total)
T22C0 1534:379 JLINK_ReadReg(R8)  returns 0x00000000 (0000ms, 12036ms total)
T22C0 1534:379 JLINK_ReadReg(R9)  returns 0x00000000 (0000ms, 12036ms total)
T22C0 1534:379 JLINK_ReadReg(R10)  returns 0x080003AC (0000ms, 12036ms total)
T22C0 1534:379 JLINK_ReadReg(R11)  returns 0x00000000 (0000ms, 12036ms total)
T22C0 1534:379 JLINK_ReadReg(R12)  returns 0x20000040 (0000ms, 12036ms total)
T22C0 1534:379 JLINK_ReadReg(R13 (SP))  returns 0x20000660 (0001ms, 12037ms total)
T22C0 1534:380 JLINK_ReadReg(R14)  returns 0x080001FB (0000ms, 12037ms total)
T22C0 1534:380 JLINK_ReadReg(R15 (PC))  returns 0x0800033C (0000ms, 12037ms total)
T22C0 1534:380 JLINK_ReadReg(XPSR)  returns 0x21000000 (0000ms, 12037ms total)
T22C0 1534:380 JLINK_ReadReg(MSP)  returns 0x20000660 (0000ms, 12037ms total)
T22C0 1534:380 JLINK_ReadReg(PSP)  returns 0x00000000 (0000ms, 12037ms total)
T22C0 1534:380 JLINK_ReadReg(CFBP)  returns 0x04000000 (0000ms, 12037ms total)
T22C0 1534:380 JLINK_ReadReg(FPSCR)  returns 0x03000000 (0005ms, 12042ms total)
T22C0 1534:385 JLINK_ReadReg(FPS0)  returns 0x00000000 (0000ms, 12042ms total)
T22C0 1534:385 JLINK_ReadReg(FPS1)  returns 0x00000000 (0000ms, 12042ms total)
T22C0 1534:385 JLINK_ReadReg(FPS2)  returns 0x00000000 (0000ms, 12042ms total)
T22C0 1534:385 JLINK_ReadReg(FPS3)  returns 0x00000000 (0000ms, 12042ms total)
T22C0 1534:385 JLINK_ReadReg(FPS4)  returns 0x00000000 (0000ms, 12042ms total)
T22C0 1534:385 JLINK_ReadReg(FPS5)  returns 0x00000000 (0000ms, 12042ms total)
T22C0 1534:385 JLINK_ReadReg(FPS6)  returns 0x00000000 (0000ms, 12042ms total)
T22C0 1534:385 JLINK_ReadReg(FPS7)  returns 0x00000000 (0000ms, 12042ms total)
T22C0 1534:385 JLINK_ReadReg(FPS8)  returns 0x00000000 (0000ms, 12042ms total)
T22C0 1534:385 JLINK_ReadReg(FPS9)  returns 0x00000000 (0000ms, 12042ms total)
T22C0 1534:386 JLINK_ReadReg(FPS10)  returns 0x00000000 (0000ms, 12043ms total)
T22C0 1534:386 JLINK_ReadReg(FPS11)  returns 0x00000000 (0000ms, 12043ms total)
T22C0 1534:386 JLINK_ReadReg(FPS12)  returns 0x00000000 (0000ms, 12043ms total)
T22C0 1534:386 JLINK_ReadReg(FPS13)  returns 0x00000000 (0000ms, 12043ms total)
T22C0 1534:386 JLINK_ReadReg(FPS14)  returns 0x00000000 (0000ms, 12043ms total)
T22C0 1534:386 JLINK_ReadReg(FPS15)  returns 0x00000000 (0000ms, 12043ms total)
T22C0 1534:386 JLINK_ReadReg(FPS16)  returns 0x00000000 (0000ms, 12043ms total)
T22C0 1534:386 JLINK_ReadReg(FPS17)  returns 0x00000000 (0000ms, 12043ms total)
T22C0 1534:386 JLINK_ReadReg(FPS18)  returns 0x00000000 (0000ms, 12043ms total)
T22C0 1534:386 JLINK_ReadReg(FPS19)  returns 0x00000000 (0000ms, 12043ms total)
T22C0 1534:386 JLINK_ReadReg(FPS20)  returns 0x00000000 (0000ms, 12043ms total)
T22C0 1534:386 JLINK_ReadReg(FPS21)  returns 0x00000000 (0000ms, 12043ms total)
T22C0 1534:386 JLINK_ReadReg(FPS22)  returns 0x00000000 (0000ms, 12043ms total)
T22C0 1534:386 JLINK_ReadReg(FPS23)  returns 0x00000000 (0001ms, 12044ms total)
T22C0 1534:387 JLINK_ReadReg(FPS24)  returns 0x00000000 (0000ms, 12044ms total)
T22C0 1534:387 JLINK_ReadReg(FPS25)  returns 0x00000000 (0000ms, 12044ms total)
T22C0 1534:387 JLINK_ReadReg(FPS26)  returns 0x00000000 (0000ms, 12044ms total)
T22C0 1534:387 JLINK_ReadReg(FPS27)  returns 0x00000000 (0000ms, 12044ms total)
T22C0 1534:387 JLINK_ReadReg(FPS28)  returns 0x00000000 (0000ms, 12044ms total)
T22C0 1534:387 JLINK_ReadReg(FPS29)  returns 0x00000000 (0000ms, 12044ms total)
T22C0 1534:387 JLINK_ReadReg(FPS30)  returns 0x00000000 (0000ms, 12044ms total)
T22C0 1534:387 JLINK_ReadReg(FPS31)  returns 0x00000000 (0000ms, 12044ms total)
T2014 1534:388 JLINK_ReadMemEx(0x00000000, 0x0004 Bytes, ..., Flags = 0x02000000) -- CPU_ReadMem(4 bytes @ 0x40023844) -- CPU_ReadMem(64 bytes @ 0x08000000) -- Updating C cache (64 bytes @ 0x08000000) -- Read from C cache (4 bytes @ 0x08000000) - Data: 60 06 00 20  returns 0x04 (0002ms, 12046ms total)
T2014 1534:391 JLINK_ReadMemU32(0xE0001004, 0x0001 Items, ...) -- CPU_ReadMem(4 bytes @ 0xE0001004) - Data: 13 04 00 00  returns 1 (0001ms, 12047ms total)
T2014 1534:393 JLINK_ReadMemEx(0x40021400, 0x0014 Bytes, ..., Flags = 0x02000004) -- CPU_ReadMem(20 bytes @ 0x40021400) - Data: 00 00 00 00 00 00 00 00 00 00 00 00 00 00 00 00 ...  returns 0x14 (0001ms, 12048ms total)
T2014 1534:394 JLINK_ReadMemEx(0x40021400, 0x0004 Bytes, ..., Flags = 0x02000004) -- CPU_ReadMem(4 bytes @ 0x40021400) - Data: 00 00 00 00  returns 0x04 (0001ms, 12049ms total)
T2014 1534:395 JLINK_ReadMemEx(0x40021404, 0x0004 Bytes, ..., Flags = 0x02000004) -- CPU_ReadMem(4 bytes @ 0x40021404) - Data: 00 00 00 00  returns 0x04 (0001ms, 12050ms total)
T2014 1534:396 JLINK_ReadMemEx(0x40021408, 0x0004 Bytes, ..., Flags = 0x02000004) -- CPU_ReadMem(4 bytes @ 0x40021408) - Data: 00 00 00 00  returns 0x04 (0001ms, 12051ms total)
T2014 1534:397 JLINK_ReadMemEx(0x4002140C, 0x0004 Bytes, ..., Flags = 0x02000004) -- CPU_ReadMem(4 bytes @ 0x4002140C) - Data: 00 00 00 00  returns 0x04 (0001ms, 12052ms total)
T2014 1534:398 JLINK_ReadMemEx(0x40021410, 0x0004 Bytes, ..., Flags = 0x02000004) -- CPU_ReadMem(4 bytes @ 0x40021410) - Data: 83 7F 00 00  returns 0x04 (0001ms, 12053ms total)
T2014 1534:399 JLINK_ReadMemEx(0x40021414, 0x0004 Bytes, ..., Flags = 0x02000004) -- CPU_ReadMem(4 bytes @ 0x40021414) - Data: 00 00 00 00  returns 0x04 (0001ms, 12054ms total)
T2014 1534:400 JLINK_ReadMemEx(0x40021414, 0x0004 Bytes, ..., Flags = 0x02000004) -- CPU_ReadMem(4 bytes @ 0x40021414) - Data: 00 00 00 00  returns 0x04 (0001ms, 12055ms total)
T2014 1534:401 JLINK_ReadMemEx(0x4002141C, 0x0008 Bytes, ..., Flags = 0x02000004) -- CPU_ReadMem(8 bytes @ 0x4002141C) - Data: 00 00 00 00 00 00 00 00  returns 0x08 (0001ms, 12056ms total)
T2014 1534:402 JLINK_ReadMemEx(0x4002141C, 0x0004 Bytes, ..., Flags = 0x02000004) -- CPU_ReadMem(4 bytes @ 0x4002141C) - Data: 00 00 00 00  returns 0x04 (0001ms, 12057ms total)
T2014 1534:403 JLINK_ReadMemEx(0x40021420, 0x0004 Bytes, ..., Flags = 0x02000004) -- CPU_ReadMem(4 bytes @ 0x40021420) - Data: 00 00 00 00  returns 0x04 (0001ms, 12058ms total)
T2014 1534:404 JLINK_ReadMemEx(0x40021424, 0x0004 Bytes, ..., Flags = 0x02000004) -- CPU_ReadMem(4 bytes @ 0x40021424) - Data: 00 00 00 00  returns 0x04 (0001ms, 12059ms total)
T2014 1534:405 JLINK_ReadMemEx(0x40021424, 0x0004 Bytes, ..., Flags = 0x02000004) -- CPU_ReadMem(4 bytes @ 0x40021424) - Data: 00 00 00 00  returns 0x04 (0001ms, 12060ms total)
T2014 1534:418 JLINK_ReadMemEx(0x0800033C, 0x003C Bytes, ..., Flags = 0x02000000) -- CPU_ReadMem(128 bytes @ 0x08000300) -- Updating C cache (128 bytes @ 0x08000300) -- Read from C cache (60 bytes @ 0x0800033C) - Data: 12 48 00 68 40 F4 80 10 10 49 08 60 1B E0 0F 48 ...  returns 0x3C (0004ms, 12064ms total)
T22C0 1536:045 JLINK_ReadMemEx(0x0800033C, 0x0002 Bytes, ..., Flags = 0x02000000) -- Read from C cache (2 bytes @ 0x0800033C) - Data: 12 48  returns 0x02 (0001ms, 12065ms total)
T22C0 1536:046 JLINK_Step() -- Read from C cache (2 bytes @ 0x0800033C) -- CPU_ReadMem(64 bytes @ 0x08000380) -- Updating C cache (64 bytes @ 0x08000380) -- Read from C cache (4 bytes @ 0x08000388) -- Simulated  returns 0x00 (0009ms, 12074ms total)
T22C0 1536:055 JLINK_ReadReg(R15 (PC))  returns 0x0800033E (0000ms, 12074ms total)
T22C0 1536:055 JLINK_ReadReg(XPSR)  returns 0x21000000 (0000ms, 12074ms total)
T22C0 1536:055 JLINK_Step() -- Read from C cache (2 bytes @ 0x0800033E) -- Not simulated -- CPU_WriteMem(4 bytes @ 0xE0001004)  returns 0x00 (0007ms, 12081ms total)
T22C0 1536:062 JLINK_ReadReg(R15 (PC))  returns 0x08000340 (0000ms, 12081ms total)
T22C0 1536:062 JLINK_ReadReg(XPSR)  returns 0x21000000 (0000ms, 12081ms total)
T22C0 1536:063 JLINK_ReadMemEx(0x08000340, 0x003C Bytes, ..., Flags = 0x02000000) -- CPU_ReadMem(64 bytes @ 0x08000340) -- Updating C cache (64 bytes @ 0x08000340) -- Read from C cache (60 bytes @ 0x08000340) - Data: 40 F4 80 10 10 49 08 60 1B E0 0F 48 14 30 00 68 ...  returns 0x3C (0001ms, 12083ms total)
T22C0 1536:064 JLINK_ReadMemEx(0x08000340, 0x0002 Bytes, ..., Flags = 0x02000000) -- Read from C cache (2 bytes @ 0x08000340) - Data: 40 F4  returns 0x02 (0000ms, 12083ms total)
T22C0 1536:064 JLINK_ReadMemEx(0x08000342, 0x0002 Bytes, ..., Flags = 0x02000000) -- Read from C cache (2 bytes @ 0x08000342) - Data: 80 10  returns 0x02 (0001ms, 12084ms total)
T22C0 1536:065 JLINK_Step() -- Read from C cache (2 bytes @ 0x08000340) -- CPU_ReadMem(4 bytes @ 0xE0001004) -- Read from C cache (2 bytes @ 0x08000342) -- Simulated  returns 0x00 (0001ms, 12085ms total)
T22C0 1536:066 JLINK_ReadReg(R15 (PC))  returns 0x08000344 (0000ms, 12085ms total)
T22C0 1536:066 JLINK_ReadReg(XPSR)  returns 0x21000000 (0000ms, 12085ms total)
T22C0 1536:066 JLINK_ReadMemEx(0x08000342, 0x0002 Bytes, ..., Flags = 0x02000000) -- Read from C cache (2 bytes @ 0x08000342) - Data: 80 10  returns 0x02 (0001ms, 12086ms total)
T22C0 1536:067 JLINK_ReadMemEx(0x08000344, 0x003C Bytes, ..., Flags = 0x02000000) -- Read from C cache (60 bytes @ 0x08000344) - Data: 10 49 08 60 1B E0 0F 48 14 30 00 68 40 F4 80 60 ...  returns 0x3C (0000ms, 12086ms total)
T22C0 1536:067 JLINK_ReadMemEx(0x08000344, 0x0002 Bytes, ..., Flags = 0x02000000) -- Read from C cache (2 bytes @ 0x08000344) - Data: 10 49  returns 0x02 (0000ms, 12086ms total)
T22C0 1536:067 JLINK_ReadMemEx(0x08000344, 0x003C Bytes, ..., Flags = 0x02000000) -- Read from C cache (60 bytes @ 0x08000344) - Data: 10 49 08 60 1B E0 0F 48 14 30 00 68 40 F4 80 60 ...  returns 0x3C (0000ms, 12086ms total)
T22C0 1536:067 JLINK_ReadMemEx(0x08000344, 0x0002 Bytes, ..., Flags = 0x02000000) -- Read from C cache (2 bytes @ 0x08000344) - Data: 10 49  returns 0x02 (0000ms, 12086ms total)
T22C0 1536:067 JLINK_ReadMemEx(0x08000346, 0x0002 Bytes, ..., Flags = 0x02000000) -- Read from C cache (2 bytes @ 0x08000346) - Data: 08 60  returns 0x02 (0000ms, 12086ms total)
